
SetupTitle, TB_IdVg
PrimitiveTest, I/V Sweep
TestParameter, Context.MainFrame, B1500A
TestParameter, Channel.UnitType, SMU, SMU, SMU
TestParameter, Channel.Unit, SMU1:MP, SMU3:MP, SMU2:MP
TestParameter, Channel.IName, IDrain, ISource, Ibg
TestParameter, Channel.VName, Drain, Source, Vbg
TestParameter, Channel.Mode, V, COMMON, V
TestParameter, Channel.Func, CONST, CONST, VAR1
TestParameter, Channel.Index, 
TestParameter, Channel.Time, 
TestParameter, Measurement.Port.Unit, SMU1:MP, SMU3:MP, SMU2:MP
TestParameter, Measurement.Port.SeriesResistor, NONE, NONE, NONE
TestParameter, Measurement.Port.Filter, ON, ON, ON
TestParameter, Measurement.Port.OutputVoltageComparison, 0, 0, 0
TestParameter, Measurement.Primary.Locus, Double
TestParameter, Measurement.Primary.Scale, LINEAR
TestParameter, Measurement.Primary.Start, -100
TestParameter, Measurement.Primary.Stop, 100
TestParameter, Measurement.Primary.Step, 1
TestParameter, Measurement.Primary.Compliance, 0.0001
TestParameter, Measurement.Primary.PowerCompliance, 0
TestParameter, Measurement.Aborting.Condition, CONTINUE AT ANY
TestParameter, Measurement.PostOutput.Value, START
TestParameter, Measurement.PostOutput.Retention, OFF
TestParameter, Measurement.Bias.Source, 0.05, 0, -100
TestParameter, Measurement.Bias.Compliance, 0.0001, 0.1, 0.0001
TestParameter, Measurement.Monitor.Unit, SMU1:MP, SMU3:MP, SMU2:MP
TestParameter, Measurement.Monitor.Adc, HR ADC, HR ADC, HR ADC
TestParameter, Measurement.Monitor.Measurement, Compliance Side, Compliance Side, Compliance Side
TestParameter, Measurement.Monitor.RangingMode, LIMITED, LIMITED, LIMITED
TestParameter, Measurement.Monitor.RangeBoundary, 1nA, 1nA, 1nA
TestParameter, Measurement.Monitor.RangeRating, BY FULL RANGE, BY FULL RANGE, BY FULL RANGE
TestParameter, Measurement.Monitor.RangeRatingCoeff, 50, 50, 50
TestParameter, Measurement.Timing.Hold, 0.1
TestParameter, Measurement.Timing.Delay, 0.01
TestParameter, Measurement.Adc.HighSpeed.Mode, AUTO
TestParameter, Measurement.Adc.HighSpeed.Coeff, 1
TestParameter, Measurement.Adc.HighResolution.AutoZero, OFF
TestParameter, Measurement.Adc.HighResolution.Mode, AUTO
TestParameter, Measurement.Adc.HighResolution.Coeff, 6
TestParameter, Measurement.WaitTime.Source.Coeff, 1
TestParameter, Measurement.WaitTime.Source.Offset, 0
TestParameter, Measurement.WaitTime.Monitor.Coeff, 1
TestParameter, Measurement.WaitTime.Monitor.Offset, 0
TestParameter, Output.Graph.Enabled, true
TestParameter, Output.Graph.AutoScaling, false
TestParameter, Output.Graph.XAxis.Data, Vbg
TestParameter, Output.Graph.XAxis.Scale, Linear
TestParameter, Output.Graph.XAxis.Left, -100
TestParameter, Output.Graph.XAxis.Right, 100
TestParameter, Output.Graph.XAxis.RunTimeAutoScale, false
TestParameter, Output.Graph.YAxis.Data, IDrain
TestParameter, Output.Graph.YAxis.Scale, Linear
TestParameter, Output.Graph.YAxis.Bottom, 5E-06
TestParameter, Output.Graph.YAxis.Top, 5E-05
TestParameter, Output.Graph.YAxis.Group, 
TestParameter, Output.Graph.YAxis.RunTimeAutoScale, true
TestParameter, AutoAnalysis.Interpolation, false
TestParameter, AutoAnalysis.Line1.Enabled, false
TestParameter, AutoAnalysis.Line1.Type, 1
TestParameter, AutoAnalysis.Line1.Fix, True
TestParameter, AutoAnalysis.Line1.YAxis, 0
TestParameter, AutoAnalysis.Line1.Point1.Type, 0
TestParameter, AutoAnalysis.Line1.Point1.XY.X, 
TestParameter, AutoAnalysis.Line1.Point1.XY.Y, 
TestParameter, AutoAnalysis.Line1.Point1.Data.Var, 
TestParameter, AutoAnalysis.Line1.Point1.Data.Condition, 
TestParameter, AutoAnalysis.Line1.Point1.Data.Start, false
TestParameter, AutoAnalysis.Line1.Point1.Data.StartVar, 
TestParameter, AutoAnalysis.Line1.Point1.Data.StartCondition, 
TestParameter, AutoAnalysis.Line1.Point2.Type, 0
TestParameter, AutoAnalysis.Line1.Point2.XY.X, 
TestParameter, AutoAnalysis.Line1.Point2.XY.Y, 
TestParameter, AutoAnalysis.Line1.Point2.Data.Var, 
TestParameter, AutoAnalysis.Line1.Point2.Data.Condition, 
TestParameter, AutoAnalysis.Line1.Point2.Data.Start, false
TestParameter, AutoAnalysis.Line1.Point2.Data.StartVar, 
TestParameter, AutoAnalysis.Line1.Point2.Data.StartCondition, 
TestParameter, AutoAnalysis.Line1.GradientExpr, 0
TestParameter, AutoAnalysis.Line2.Enabled, false
TestParameter, AutoAnalysis.Line2.Type, 1
TestParameter, AutoAnalysis.Line2.Fix, True
TestParameter, AutoAnalysis.Line2.YAxis, 0
TestParameter, AutoAnalysis.Line2.Point1.Type, 0
TestParameter, AutoAnalysis.Line2.Point1.XY.X, 
TestParameter, AutoAnalysis.Line2.Point1.XY.Y, 
TestParameter, AutoAnalysis.Line2.Point1.Data.Var, 
TestParameter, AutoAnalysis.Line2.Point1.Data.Condition, 
TestParameter, AutoAnalysis.Line2.Point1.Data.Start, false
TestParameter, AutoAnalysis.Line2.Point1.Data.StartVar, 
TestParameter, AutoAnalysis.Line2.Point1.Data.StartCondition, 
TestParameter, AutoAnalysis.Line2.Point2.Type, 0
TestParameter, AutoAnalysis.Line2.Point2.XY.X, 
TestParameter, AutoAnalysis.Line2.Point2.XY.Y, 
TestParameter, AutoAnalysis.Line2.Point2.Data.Var, 
TestParameter, AutoAnalysis.Line2.Point2.Data.Condition, 
TestParameter, AutoAnalysis.Line2.Point2.Data.Start, false
TestParameter, AutoAnalysis.Line2.Point2.Data.StartVar, 
TestParameter, AutoAnalysis.Line2.Point2.Data.StartCondition, 
TestParameter, AutoAnalysis.Line2.GradientExpr, 0
TestParameter, AutoAnalysis.Marker.Enabled, false
TestParameter, AutoAnalysis.Marker.Data.Var, 
TestParameter, AutoAnalysis.Marker.Data.Condition, 
TestParameter, AutoAnalysis.Marker.Data.Start, false
TestParameter, AutoAnalysis.Marker.Data.StartVar, 
TestParameter, AutoAnalysis.Marker.Data.StartCondition, 
MetaData, TestRecord.EntryPoint, true
MetaData, TestRecord.RecordTime, 11/05/2019 09:37:39
MetaData, TestRecord.TestTarget, 
MetaData, TestRecord.IterationIndex, 2
MetaData, TestRecord.Preservation, true
MetaData, TestRecord.Flag, 
MetaData, TestRecord.Remarks, 
MetaData, TestRecord.LinkKey, 3db1a956-0ea3-412d-8904-536b66ea6d54
Dimension1, 402, 402
Dimension2, 1, 1
DataName, Vbg, IDrain
DataValue, -100, 3.9854E-05
DataValue, -99, 3.9544E-05
DataValue, -98, 3.9242E-05
DataValue, -97, 3.8968000000000004E-05
DataValue, -96, 3.8690000000000004E-05
DataValue, -95, 3.8422E-05
DataValue, -94, 3.8166E-05
DataValue, -93, 3.7904E-05
DataValue, -92, 3.7670000000000004E-05
DataValue, -91, 3.7414000000000005E-05
DataValue, -90, 3.7196E-05
DataValue, -89, 3.6952E-05
DataValue, -88, 3.6704E-05
DataValue, -87, 3.6462000000000004E-05
DataValue, -86, 3.6222E-05
DataValue, -85, 3.6004E-05
DataValue, -84, 3.576E-05
DataValue, -83, 3.5526E-05
DataValue, -82, 3.5288E-05
DataValue, -81, 3.5066E-05
DataValue, -80, 3.4826E-05
DataValue, -79, 3.4592000000000004E-05
DataValue, -78, 3.4364E-05
DataValue, -77, 3.4128E-05
DataValue, -76, 3.3876E-05
DataValue, -75, 3.3642E-05
DataValue, -74, 3.3398E-05
DataValue, -73, 3.3144E-05
DataValue, -72, 3.2898E-05
DataValue, -71, 3.2656E-05
DataValue, -70, 3.24E-05
DataValue, -69, 3.2154000000000004E-05
DataValue, -68, 3.1896E-05
DataValue, -67, 3.1656E-05
DataValue, -66, 3.1392E-05
DataValue, -65, 3.1134000000000004E-05
DataValue, -64, 3.0886E-05
DataValue, -63, 3.0628E-05
DataValue, -62, 3.0372E-05
DataValue, -61, 3.0088E-05
DataValue, -60, 2.9828E-05
DataValue, -59, 2.9554000000000002E-05
DataValue, -58, 2.9302E-05
DataValue, -57, 2.903E-05
DataValue, -56, 2.8760000000000002E-05
DataValue, -55, 2.8496E-05
DataValue, -54, 2.8210000000000003E-05
DataValue, -53, 2.7926E-05
DataValue, -52, 2.7652000000000002E-05
DataValue, -51, 2.7354E-05
DataValue, -50, 2.7084E-05
DataValue, -49, 2.6804E-05
DataValue, -48, 2.6506E-05
DataValue, -47, 2.6216E-05
DataValue, -46, 2.5916E-05
DataValue, -45, 2.5618E-05
DataValue, -44, 2.5318E-05
DataValue, -43, 2.5024E-05
DataValue, -42, 2.472E-05
DataValue, -41, 2.4410000000000002E-05
DataValue, -40, 2.4102E-05
DataValue, -39, 2.3794E-05
DataValue, -38, 2.3466000000000002E-05
DataValue, -37, 2.3158E-05
DataValue, -36, 2.284E-05
DataValue, -35, 2.2522000000000002E-05
DataValue, -34, 2.2196000000000002E-05
DataValue, -33, 2.1884E-05
DataValue, -32, 2.1544000000000002E-05
DataValue, -31, 2.1216E-05
DataValue, -30, 2.0886E-05
DataValue, -29, 2.0548E-05
DataValue, -28, 2.0206E-05
DataValue, -27, 1.9866E-05
DataValue, -26, 1.9522E-05
DataValue, -25, 1.9184E-05
DataValue, -24, 1.883E-05
DataValue, -23, 1.8474E-05
DataValue, -22, 1.8112000000000002E-05
DataValue, -21, 1.7762E-05
DataValue, -20, 1.7392000000000002E-05
DataValue, -19, 1.7022E-05
DataValue, -18, 1.6656E-05
DataValue, -17, 1.6288E-05
DataValue, -16, 1.5914E-05
DataValue, -15, 1.554E-05
DataValue, -14, 1.5158000000000001E-05
DataValue, -13, 1.4776E-05
DataValue, -12, 1.4382E-05
DataValue, -11, 1.4002E-05
DataValue, -10, 1.361E-05
DataValue, -9, 1.3218000000000001E-05
DataValue, -8, 1.2824000000000001E-05
DataValue, -7, 1.2432E-05
DataValue, -6, 1.203E-05
DataValue, -5, 1.1632E-05
DataValue, -4, 1.1230000000000001E-05
DataValue, -3, 1.0824E-05
DataValue, -2, 1.0422000000000001E-05
DataValue, -1, 1.0022E-05
DataValue, 0, 9.6278000000000012E-06
DataValue, 1, 9.2200000000000015E-06
DataValue, 2, 8.8223E-06
DataValue, 3, 8.4343000000000016E-06
DataValue, 4, 8.0565000000000016E-06
DataValue, 5, 7.7071000000000011E-06
DataValue, 6, 7.3762000000000006E-06
DataValue, 7, 7.0691000000000006E-06
DataValue, 8, 6.7868000000000008E-06
DataValue, 9, 6.5345000000000007E-06
DataValue, 10, 6.3132000000000008E-06
DataValue, 11, 6.1202E-06
DataValue, 12, 5.9644000000000009E-06
DataValue, 13, 5.8356000000000005E-06
DataValue, 14, 5.7338000000000009E-06
DataValue, 15, 5.6483000000000006E-06
DataValue, 16, 5.5874000000000009E-06
DataValue, 17, 5.5427E-06
DataValue, 18, 5.5163000000000009E-06
DataValue, 19, 5.5074000000000008E-06
DataValue, 20, 5.5091E-06
DataValue, 21, 5.5225000000000009E-06
DataValue, 22, 5.5428000000000005E-06
DataValue, 23, 5.5651E-06
DataValue, 24, 5.5958000000000007E-06
DataValue, 25, 5.6268000000000009E-06
DataValue, 26, 5.6699000000000006E-06
DataValue, 27, 5.7170000000000005E-06
DataValue, 28, 5.7672000000000004E-06
DataValue, 29, 5.813800000000001E-06
DataValue, 30, 5.8584000000000005E-06
DataValue, 31, 5.907E-06
DataValue, 32, 5.9549E-06
DataValue, 33, 6.0091000000000006E-06
DataValue, 34, 6.0627E-06
DataValue, 35, 6.118600000000001E-06
DataValue, 36, 6.1685E-06
DataValue, 37, 6.2205000000000008E-06
DataValue, 38, 6.2698000000000005E-06
DataValue, 39, 6.3216000000000006E-06
DataValue, 40, 6.3745000000000005E-06
DataValue, 41, 6.4292000000000011E-06
DataValue, 42, 6.4849E-06
DataValue, 43, 6.5302000000000006E-06
DataValue, 44, 6.5790000000000009E-06
DataValue, 45, 6.6277000000000009E-06
DataValue, 46, 6.6720000000000007E-06
DataValue, 47, 6.7230000000000007E-06
DataValue, 48, 6.7715E-06
DataValue, 49, 6.8212000000000009E-06
DataValue, 50, 6.8681E-06
DataValue, 51, 6.9129E-06
DataValue, 52, 6.952600000000001E-06
DataValue, 53, 6.9950000000000008E-06
DataValue, 54, 7.0409000000000006E-06
DataValue, 55, 7.0857000000000006E-06
DataValue, 56, 7.130700000000001E-06
DataValue, 57, 7.1659000000000011E-06
DataValue, 58, 7.2080000000000011E-06
DataValue, 59, 7.2413000000000004E-06
DataValue, 60, 7.2832000000000008E-06
DataValue, 61, 7.3222000000000008E-06
DataValue, 62, 7.3646000000000006E-06
DataValue, 63, 7.4014000000000008E-06
DataValue, 64, 7.4336000000000011E-06
DataValue, 65, 7.4666000000000006E-06
DataValue, 66, 7.4946000000000011E-06
DataValue, 67, 7.5351000000000009E-06
DataValue, 68, 7.572600000000001E-06
DataValue, 69, 7.6087000000000005E-06
DataValue, 70, 7.644E-06
DataValue, 71, 7.6723000000000011E-06
DataValue, 72, 7.6987000000000014E-06
DataValue, 73, 7.7271000000000009E-06
DataValue, 74, 7.7516E-06
DataValue, 75, 7.7881000000000009E-06
DataValue, 76, 7.8197E-06
DataValue, 77, 7.8531000000000011E-06
DataValue, 78, 7.8802000000000012E-06
DataValue, 79, 7.9122E-06
DataValue, 80, 7.9363E-06
DataValue, 81, 7.9565E-06
DataValue, 82, 7.9893000000000016E-06
DataValue, 83, 8.0101000000000015E-06
DataValue, 84, 8.0406E-06
DataValue, 85, 8.0755000000000009E-06
DataValue, 86, 8.0975E-06
DataValue, 87, 8.1215E-06
DataValue, 88, 8.1436000000000011E-06
DataValue, 89, 8.1639000000000016E-06
DataValue, 90, 8.1965E-06
DataValue, 91, 8.2204E-06
DataValue, 92, 8.2504000000000015E-06
DataValue, 93, 8.2712000000000014E-06
DataValue, 94, 8.295000000000001E-06
DataValue, 95, 8.3222000000000014E-06
DataValue, 96, 8.3435E-06
DataValue, 97, 8.3702000000000016E-06
DataValue, 98, 8.3976E-06
DataValue, 99, 8.4246E-06
DataValue, 100, 8.4475E-06
DataValue, 100, 8.389E-06
DataValue, 99, 8.2476E-06
DataValue, 98, 8.1255E-06
DataValue, 97, 8.0118E-06
DataValue, 96, 7.9109E-06
DataValue, 95, 7.8160000000000011E-06
DataValue, 94, 7.7179000000000011E-06
DataValue, 93, 7.6269000000000006E-06
DataValue, 92, 7.5396000000000006E-06
DataValue, 91, 7.4616000000000007E-06
DataValue, 90, 7.3850000000000004E-06
DataValue, 89, 7.3117000000000007E-06
DataValue, 88, 7.234600000000001E-06
DataValue, 87, 7.166600000000001E-06
DataValue, 86, 7.0956E-06
DataValue, 85, 7.0270000000000007E-06
DataValue, 84, 6.9630000000000009E-06
DataValue, 83, 6.9044E-06
DataValue, 82, 6.8461E-06
DataValue, 81, 6.7883000000000007E-06
DataValue, 80, 6.7285000000000009E-06
DataValue, 79, 6.6720000000000007E-06
DataValue, 78, 6.6179000000000006E-06
DataValue, 77, 6.5590000000000011E-06
DataValue, 76, 6.5111000000000011E-06
DataValue, 75, 6.4642000000000007E-06
DataValue, 74, 6.4167000000000008E-06
DataValue, 73, 6.369E-06
DataValue, 72, 6.321000000000001E-06
DataValue, 71, 6.2738000000000008E-06
DataValue, 70, 6.2265000000000004E-06
DataValue, 69, 6.1832E-06
DataValue, 68, 6.1479000000000009E-06
DataValue, 67, 6.1091000000000005E-06
DataValue, 66, 6.0764000000000008E-06
DataValue, 65, 6.0370000000000008E-06
DataValue, 64, 6.0014000000000007E-06
DataValue, 63, 5.966000000000001E-06
DataValue, 62, 5.9349000000000006E-06
DataValue, 61, 5.9086000000000005E-06
DataValue, 60, 5.8843000000000006E-06
DataValue, 59, 5.8639000000000007E-06
DataValue, 58, 5.8373000000000008E-06
DataValue, 57, 5.8151000000000004E-06
DataValue, 56, 5.7945E-06
DataValue, 55, 5.7803E-06
DataValue, 54, 5.7739000000000007E-06
DataValue, 53, 5.7668E-06
DataValue, 52, 5.7668E-06
DataValue, 51, 5.7631000000000008E-06
DataValue, 50, 5.7654000000000007E-06
DataValue, 49, 5.7718E-06
DataValue, 48, 5.7861E-06
DataValue, 47, 5.8074000000000005E-06
DataValue, 46, 5.834E-06
DataValue, 45, 5.8693000000000007E-06
DataValue, 44, 5.9045000000000008E-06
DataValue, 43, 5.951E-06
DataValue, 42, 6.0003000000000008E-06
DataValue, 41, 6.065E-06
DataValue, 40, 6.1408000000000006E-06
DataValue, 39, 6.2237E-06
DataValue, 38, 6.3195E-06
DataValue, 37, 6.4227E-06
DataValue, 36, 6.5402000000000005E-06
DataValue, 35, 6.6685000000000006E-06
DataValue, 34, 6.8138000000000007E-06
DataValue, 33, 6.9753000000000008E-06
DataValue, 32, 7.1525000000000006E-06
DataValue, 31, 7.3432000000000011E-06
DataValue, 30, 7.5435000000000007E-06
DataValue, 29, 7.7537E-06
DataValue, 28, 7.9845000000000012E-06
DataValue, 27, 8.2244E-06
DataValue, 26, 8.4876000000000015E-06
DataValue, 25, 8.7597E-06
DataValue, 24, 9.0427E-06
DataValue, 23, 9.3282000000000016E-06
DataValue, 22, 9.6242000000000018E-06
DataValue, 21, 9.9258E-06
DataValue, 20, 1.0238400000000002E-05
DataValue, 19, 1.0552700000000002E-05
DataValue, 18, 1.0882700000000002E-05
DataValue, 17, 1.1213200000000001E-05
DataValue, 16, 1.15E-05
DataValue, 15, 1.184E-05
DataValue, 14, 1.218E-05
DataValue, 13, 1.253E-05
DataValue, 12, 1.287E-05
DataValue, 11, 1.3212E-05
DataValue, 10, 1.3548E-05
DataValue, 9, 1.389E-05
DataValue, 8, 1.4234000000000001E-05
DataValue, 7, 1.4576E-05
DataValue, 6, 1.4912E-05
DataValue, 5, 1.5248E-05
DataValue, 4, 1.5582E-05
DataValue, 3, 1.592E-05
DataValue, 2, 1.626E-05
DataValue, 1, 1.6592E-05
DataValue, 0, 1.6924E-05
DataValue, -1, 1.7252E-05
DataValue, -2, 1.7584E-05
DataValue, -3, 1.791E-05
DataValue, -4, 1.8236E-05
DataValue, -5, 1.8558E-05
DataValue, -6, 1.8886000000000002E-05
DataValue, -7, 1.9196E-05
DataValue, -8, 1.9512000000000002E-05
DataValue, -9, 1.9832E-05
DataValue, -10, 2.0146E-05
DataValue, -11, 2.0458E-05
DataValue, -12, 2.0772E-05
DataValue, -13, 2.1078E-05
DataValue, -14, 2.1386E-05
DataValue, -15, 2.169E-05
DataValue, -16, 2.1996E-05
DataValue, -17, 2.2290000000000002E-05
DataValue, -18, 2.2592E-05
DataValue, -19, 2.289E-05
DataValue, -20, 2.3184E-05
DataValue, -21, 2.3482E-05
DataValue, -22, 2.3766000000000003E-05
DataValue, -23, 2.4054E-05
DataValue, -24, 2.4332E-05
DataValue, -25, 2.4624E-05
DataValue, -26, 2.4900000000000002E-05
DataValue, -27, 2.5172000000000002E-05
DataValue, -28, 2.5450000000000002E-05
DataValue, -29, 2.571E-05
DataValue, -30, 2.5978E-05
DataValue, -31, 2.6256E-05
DataValue, -32, 2.6526E-05
DataValue, -33, 2.6788000000000002E-05
DataValue, -34, 2.7040000000000002E-05
DataValue, -35, 2.731E-05
DataValue, -36, 2.7556000000000002E-05
DataValue, -37, 2.781E-05
DataValue, -38, 2.8066000000000002E-05
DataValue, -39, 2.832E-05
DataValue, -40, 2.8564E-05
DataValue, -41, 2.8808000000000003E-05
DataValue, -42, 2.9046E-05
DataValue, -43, 2.9284E-05
DataValue, -44, 2.9522E-05
DataValue, -45, 2.976E-05
DataValue, -46, 2.9986E-05
DataValue, -47, 3.0206000000000002E-05
DataValue, -48, 3.0436E-05
DataValue, -49, 3.067E-05
DataValue, -50, 3.088E-05
DataValue, -51, 3.112E-05
DataValue, -52, 3.134E-05
DataValue, -53, 3.1556E-05
DataValue, -54, 3.1766E-05
DataValue, -55, 3.1982E-05
DataValue, -56, 3.2166000000000003E-05
DataValue, -57, 3.2384E-05
DataValue, -58, 3.2588E-05
DataValue, -59, 3.2796E-05
DataValue, -60, 3.3002E-05
DataValue, -61, 3.3192000000000003E-05
DataValue, -62, 3.3392E-05
DataValue, -63, 3.359E-05
DataValue, -64, 3.3796E-05
DataValue, -65, 3.3972E-05
DataValue, -66, 3.4168E-05
DataValue, -67, 3.4336E-05
DataValue, -68, 3.4528E-05
DataValue, -69, 3.471E-05
DataValue, -70, 3.4882E-05
DataValue, -71, 3.5058E-05
DataValue, -72, 3.5236E-05
DataValue, -73, 3.5406E-05
DataValue, -74, 3.5576E-05
DataValue, -75, 3.5744E-05
DataValue, -76, 3.5904E-05
DataValue, -77, 3.6072E-05
DataValue, -78, 3.6228E-05
DataValue, -79, 3.6392E-05
DataValue, -80, 3.6554E-05
DataValue, -81, 3.6722E-05
DataValue, -82, 3.6848000000000004E-05
DataValue, -83, 3.7008E-05
DataValue, -84, 3.7154000000000004E-05
DataValue, -85, 3.7294E-05
DataValue, -86, 3.7448000000000005E-05
DataValue, -87, 3.7582E-05
DataValue, -88, 3.7734E-05
DataValue, -89, 3.7856E-05
DataValue, -90, 3.8012E-05
DataValue, -91, 3.8140000000000004E-05
DataValue, -92, 3.8272E-05
DataValue, -93, 3.8404E-05
DataValue, -94, 3.8520000000000004E-05
DataValue, -95, 3.8648E-05
DataValue, -96, 3.8776E-05
DataValue, -97, 3.8904E-05
DataValue, -98, 3.9034E-05
DataValue, -99, 3.9158E-05
DataValue, -100, 3.9276E-05