
SetupTitle, TB_IdVg
PrimitiveTest, I/V Sweep
TestParameter, Context.MainFrame, B1500A
TestParameter, Channel.UnitType, SMU, SMU, SMU
TestParameter, Channel.Unit, SMU1:MP, SMU3:MP, SMU2:MP
TestParameter, Channel.IName, IDrain, ISource, Ibg
TestParameter, Channel.VName, Drain, Source, Vbg
TestParameter, Channel.Mode, V, COMMON, V
TestParameter, Channel.Func, CONST, CONST, VAR1
TestParameter, Channel.Index, 
TestParameter, Channel.Time, 
TestParameter, Measurement.Port.Unit, SMU1:MP, SMU3:MP, SMU2:MP
TestParameter, Measurement.Port.SeriesResistor, NONE, NONE, NONE
TestParameter, Measurement.Port.Filter, ON, ON, ON
TestParameter, Measurement.Port.OutputVoltageComparison, 0, 0, 0
TestParameter, Measurement.Primary.Locus, Double
TestParameter, Measurement.Primary.Scale, LINEAR
TestParameter, Measurement.Primary.Start, -100
TestParameter, Measurement.Primary.Stop, 100
TestParameter, Measurement.Primary.Step, 1
TestParameter, Measurement.Primary.Compliance, 0.0001
TestParameter, Measurement.Primary.PowerCompliance, 0
TestParameter, Measurement.Aborting.Condition, CONTINUE AT ANY
TestParameter, Measurement.PostOutput.Value, START
TestParameter, Measurement.PostOutput.Retention, OFF
TestParameter, Measurement.Bias.Source, 0.05, 0, -100
TestParameter, Measurement.Bias.Compliance, 0.0001, 0.1, 0.0001
TestParameter, Measurement.Monitor.Unit, SMU1:MP, SMU3:MP, SMU2:MP
TestParameter, Measurement.Monitor.Adc, HR ADC, HR ADC, HR ADC
TestParameter, Measurement.Monitor.Measurement, Compliance Side, Compliance Side, Compliance Side
TestParameter, Measurement.Monitor.RangingMode, LIMITED, LIMITED, LIMITED
TestParameter, Measurement.Monitor.RangeBoundary, 1nA, 1nA, 1nA
TestParameter, Measurement.Monitor.RangeRating, BY FULL RANGE, BY FULL RANGE, BY FULL RANGE
TestParameter, Measurement.Monitor.RangeRatingCoeff, 50, 50, 50
TestParameter, Measurement.Timing.Hold, 0.1
TestParameter, Measurement.Timing.Delay, 0.01
TestParameter, Measurement.Adc.HighSpeed.Mode, AUTO
TestParameter, Measurement.Adc.HighSpeed.Coeff, 1
TestParameter, Measurement.Adc.HighResolution.AutoZero, OFF
TestParameter, Measurement.Adc.HighResolution.Mode, AUTO
TestParameter, Measurement.Adc.HighResolution.Coeff, 6
TestParameter, Measurement.WaitTime.Source.Coeff, 1
TestParameter, Measurement.WaitTime.Source.Offset, 0
TestParameter, Measurement.WaitTime.Monitor.Coeff, 1
TestParameter, Measurement.WaitTime.Monitor.Offset, 0
TestParameter, Output.Graph.Enabled, true
TestParameter, Output.Graph.AutoScaling, false
TestParameter, Output.Graph.XAxis.Data, Vbg
TestParameter, Output.Graph.XAxis.Scale, Linear
TestParameter, Output.Graph.XAxis.Left, -100
TestParameter, Output.Graph.XAxis.Right, 100
TestParameter, Output.Graph.XAxis.RunTimeAutoScale, false
TestParameter, Output.Graph.YAxis.Data, IDrain
TestParameter, Output.Graph.YAxis.Scale, Linear
TestParameter, Output.Graph.YAxis.Bottom, 5E-06
TestParameter, Output.Graph.YAxis.Top, 5E-05
TestParameter, Output.Graph.YAxis.Group, 
TestParameter, Output.Graph.YAxis.RunTimeAutoScale, true
TestParameter, AutoAnalysis.Interpolation, false
TestParameter, AutoAnalysis.Line1.Enabled, false
TestParameter, AutoAnalysis.Line1.Type, 1
TestParameter, AutoAnalysis.Line1.Fix, True
TestParameter, AutoAnalysis.Line1.YAxis, 0
TestParameter, AutoAnalysis.Line1.Point1.Type, 0
TestParameter, AutoAnalysis.Line1.Point1.XY.X, 
TestParameter, AutoAnalysis.Line1.Point1.XY.Y, 
TestParameter, AutoAnalysis.Line1.Point1.Data.Var, 
TestParameter, AutoAnalysis.Line1.Point1.Data.Condition, 
TestParameter, AutoAnalysis.Line1.Point1.Data.Start, false
TestParameter, AutoAnalysis.Line1.Point1.Data.StartVar, 
TestParameter, AutoAnalysis.Line1.Point1.Data.StartCondition, 
TestParameter, AutoAnalysis.Line1.Point2.Type, 0
TestParameter, AutoAnalysis.Line1.Point2.XY.X, 
TestParameter, AutoAnalysis.Line1.Point2.XY.Y, 
TestParameter, AutoAnalysis.Line1.Point2.Data.Var, 
TestParameter, AutoAnalysis.Line1.Point2.Data.Condition, 
TestParameter, AutoAnalysis.Line1.Point2.Data.Start, false
TestParameter, AutoAnalysis.Line1.Point2.Data.StartVar, 
TestParameter, AutoAnalysis.Line1.Point2.Data.StartCondition, 
TestParameter, AutoAnalysis.Line1.GradientExpr, 0
TestParameter, AutoAnalysis.Line2.Enabled, false
TestParameter, AutoAnalysis.Line2.Type, 1
TestParameter, AutoAnalysis.Line2.Fix, True
TestParameter, AutoAnalysis.Line2.YAxis, 0
TestParameter, AutoAnalysis.Line2.Point1.Type, 0
TestParameter, AutoAnalysis.Line2.Point1.XY.X, 
TestParameter, AutoAnalysis.Line2.Point1.XY.Y, 
TestParameter, AutoAnalysis.Line2.Point1.Data.Var, 
TestParameter, AutoAnalysis.Line2.Point1.Data.Condition, 
TestParameter, AutoAnalysis.Line2.Point1.Data.Start, false
TestParameter, AutoAnalysis.Line2.Point1.Data.StartVar, 
TestParameter, AutoAnalysis.Line2.Point1.Data.StartCondition, 
TestParameter, AutoAnalysis.Line2.Point2.Type, 0
TestParameter, AutoAnalysis.Line2.Point2.XY.X, 
TestParameter, AutoAnalysis.Line2.Point2.XY.Y, 
TestParameter, AutoAnalysis.Line2.Point2.Data.Var, 
TestParameter, AutoAnalysis.Line2.Point2.Data.Condition, 
TestParameter, AutoAnalysis.Line2.Point2.Data.Start, false
TestParameter, AutoAnalysis.Line2.Point2.Data.StartVar, 
TestParameter, AutoAnalysis.Line2.Point2.Data.StartCondition, 
TestParameter, AutoAnalysis.Line2.GradientExpr, 0
TestParameter, AutoAnalysis.Marker.Enabled, false
TestParameter, AutoAnalysis.Marker.Data.Var, 
TestParameter, AutoAnalysis.Marker.Data.Condition, 
TestParameter, AutoAnalysis.Marker.Data.Start, false
TestParameter, AutoAnalysis.Marker.Data.StartVar, 
TestParameter, AutoAnalysis.Marker.Data.StartCondition, 
MetaData, TestRecord.EntryPoint, true
MetaData, TestRecord.RecordTime, 11/04/2019 07:32:11
MetaData, TestRecord.TestTarget, 
MetaData, TestRecord.IterationIndex, 2
MetaData, TestRecord.Preservation, true
MetaData, TestRecord.Flag, 
MetaData, TestRecord.Remarks, 
MetaData, TestRecord.LinkKey, 24593a51-8b56-4164-b806-a923d63d8e07
Dimension1, 402, 402
Dimension2, 1, 1
DataName, Vbg, IDrain
DataValue, -100, 2.273E-05
DataValue, -99, 2.2514E-05
DataValue, -98, 2.2292E-05
DataValue, -97, 2.209E-05
DataValue, -96, 2.1932E-05
DataValue, -95, 2.179E-05
DataValue, -94, 2.162E-05
DataValue, -93, 2.1508E-05
DataValue, -92, 2.139E-05
DataValue, -91, 2.1276E-05
DataValue, -90, 2.1198E-05
DataValue, -89, 2.1092E-05
DataValue, -88, 2.1006000000000002E-05
DataValue, -87, 2.0904000000000002E-05
DataValue, -86, 2.0818E-05
DataValue, -85, 2.0718E-05
DataValue, -84, 2.0594E-05
DataValue, -83, 2.0412E-05
DataValue, -82, 2.0268E-05
DataValue, -81, 2.0094E-05
DataValue, -80, 1.9656E-05
DataValue, -79, 1.949E-05
DataValue, -78, 1.9324E-05
DataValue, -77, 1.9174E-05
DataValue, -76, 1.899E-05
DataValue, -75, 1.8872E-05
DataValue, -74, 1.8722E-05
DataValue, -73, 1.86E-05
DataValue, -72, 1.8448E-05
DataValue, -71, 1.8302000000000002E-05
DataValue, -70, 1.8184E-05
DataValue, -69, 1.8048E-05
DataValue, -68, 1.794E-05
DataValue, -67, 1.7796E-05
DataValue, -66, 1.7648E-05
DataValue, -65, 1.7496E-05
DataValue, -64, 1.7354E-05
DataValue, -63, 1.7172E-05
DataValue, -62, 1.7024E-05
DataValue, -61, 1.6872E-05
DataValue, -60, 1.6712000000000002E-05
DataValue, -59, 1.6526E-05
DataValue, -58, 1.6378E-05
DataValue, -57, 1.6234E-05
DataValue, -56, 1.6058E-05
DataValue, -55, 1.5906E-05
DataValue, -54, 1.5752E-05
DataValue, -53, 1.5596E-05
DataValue, -52, 1.5438E-05
DataValue, -51, 1.5278000000000002E-05
DataValue, -50, 1.5118E-05
DataValue, -49, 1.4940000000000001E-05
DataValue, -48, 1.4772E-05
DataValue, -47, 1.4616E-05
DataValue, -46, 1.445E-05
DataValue, -45, 1.4276E-05
DataValue, -44, 1.4128000000000001E-05
DataValue, -43, 1.3964E-05
DataValue, -42, 1.3788E-05
DataValue, -41, 1.3626000000000001E-05
DataValue, -40, 1.3488E-05
DataValue, -39, 1.3302E-05
DataValue, -38, 1.3144E-05
DataValue, -37, 1.2978E-05
DataValue, -36, 1.2826E-05
DataValue, -35, 1.2636E-05
DataValue, -34, 1.2482E-05
DataValue, -33, 1.231E-05
DataValue, -32, 1.2134000000000001E-05
DataValue, -31, 1.1978000000000001E-05
DataValue, -30, 1.1812E-05
DataValue, -29, 1.163E-05
DataValue, -28, 1.146E-05
DataValue, -27, 1.1272E-05
DataValue, -26, 1.1102E-05
DataValue, -25, 1.0914000000000001E-05
DataValue, -24, 1.0774E-05
DataValue, -23, 1.061E-05
DataValue, -22, 1.0416E-05
DataValue, -21, 1.0258E-05
DataValue, -20, 1.009E-05
DataValue, -19, 9.9077000000000017E-06
DataValue, -18, 9.7637000000000011E-06
DataValue, -17, 9.6033000000000017E-06
DataValue, -16, 9.4614E-06
DataValue, -15, 9.3015E-06
DataValue, -14, 9.1416E-06
DataValue, -13, 8.9616E-06
DataValue, -12, 8.8189000000000012E-06
DataValue, -11, 8.6438E-06
DataValue, -10, 8.4743000000000012E-06
DataValue, -9, 8.3281E-06
DataValue, -8, 8.1568000000000013E-06
DataValue, -7, 7.9866E-06
DataValue, -6, 7.8233E-06
DataValue, -5, 7.6799E-06
DataValue, -4, 7.5538E-06
DataValue, -3, 7.3883000000000009E-06
DataValue, -2, 7.2664000000000004E-06
DataValue, -1, 7.1481000000000011E-06
DataValue, 0, 7.0093000000000008E-06
DataValue, 1, 6.9103000000000006E-06
DataValue, 2, 6.806600000000001E-06
DataValue, 3, 6.6899000000000009E-06
DataValue, 4, 6.5821000000000009E-06
DataValue, 5, 6.4599000000000006E-06
DataValue, 6, 6.3688000000000008E-06
DataValue, 7, 6.2551000000000005E-06
DataValue, 8, 6.1567000000000007E-06
DataValue, 9, 6.0647000000000006E-06
DataValue, 10, 5.9593000000000007E-06
DataValue, 11, 5.8803E-06
DataValue, 12, 5.7953E-06
DataValue, 13, 5.7316E-06
DataValue, 14, 5.6718000000000005E-06
DataValue, 15, 5.6158000000000005E-06
DataValue, 16, 5.5800000000000008E-06
DataValue, 17, 5.5425000000000007E-06
DataValue, 18, 5.5265E-06
DataValue, 19, 5.4918000000000005E-06
DataValue, 20, 5.4532000000000006E-06
DataValue, 21, 5.4496E-06
DataValue, 22, 5.4292000000000005E-06
DataValue, 23, 5.4402000000000009E-06
DataValue, 24, 5.4413000000000007E-06
DataValue, 25, 5.4512000000000004E-06
DataValue, 26, 5.4546E-06
DataValue, 27, 5.4691000000000007E-06
DataValue, 28, 5.4842000000000008E-06
DataValue, 29, 5.496E-06
DataValue, 30, 5.5201000000000007E-06
DataValue, 31, 5.5322E-06
DataValue, 32, 5.5527E-06
DataValue, 33, 5.5781000000000009E-06
DataValue, 34, 5.5822000000000005E-06
DataValue, 35, 5.6017000000000009E-06
DataValue, 36, 5.621800000000001E-06
DataValue, 37, 5.6563E-06
DataValue, 38, 5.6696000000000007E-06
DataValue, 39, 5.7078000000000006E-06
DataValue, 40, 5.7246E-06
DataValue, 41, 5.7388000000000009E-06
DataValue, 42, 5.7561000000000007E-06
DataValue, 43, 5.7728000000000009E-06
DataValue, 44, 5.8093000000000004E-06
DataValue, 45, 5.8352000000000005E-06
DataValue, 46, 5.8575E-06
DataValue, 47, 5.881800000000001E-06
DataValue, 48, 5.9138000000000009E-06
DataValue, 49, 5.9084000000000009E-06
DataValue, 50, 5.9337000000000005E-06
DataValue, 51, 5.9640000000000008E-06
DataValue, 52, 6.003100000000001E-06
DataValue, 53, 6.0089E-06
DataValue, 54, 6.0268000000000005E-06
DataValue, 55, 6.0415000000000005E-06
DataValue, 56, 6.0572E-06
DataValue, 57, 6.0807000000000009E-06
DataValue, 58, 6.1087000000000005E-06
DataValue, 59, 6.130200000000001E-06
DataValue, 60, 6.1614000000000008E-06
DataValue, 61, 6.1774E-06
DataValue, 62, 6.2041000000000005E-06
DataValue, 63, 6.2267000000000009E-06
DataValue, 64, 6.234100000000001E-06
DataValue, 65, 6.2908000000000008E-06
DataValue, 66, 6.3377E-06
DataValue, 67, 6.355400000000001E-06
DataValue, 68, 6.378200000000001E-06
DataValue, 69, 6.3784000000000006E-06
DataValue, 70, 6.3814000000000004E-06
DataValue, 71, 6.406400000000001E-06
DataValue, 72, 6.431500000000001E-06
DataValue, 73, 6.4348000000000006E-06
DataValue, 74, 6.4576000000000006E-06
DataValue, 75, 6.4748E-06
DataValue, 76, 6.4853E-06
DataValue, 77, 6.5017000000000008E-06
DataValue, 78, 6.5285E-06
DataValue, 79, 6.5611000000000006E-06
DataValue, 80, 6.5689000000000008E-06
DataValue, 81, 6.5951000000000006E-06
DataValue, 82, 6.620400000000001E-06
DataValue, 83, 6.6623000000000006E-06
DataValue, 84, 6.6681000000000006E-06
DataValue, 85, 6.6913000000000006E-06
DataValue, 86, 6.712E-06
DataValue, 87, 6.7407000000000005E-06
DataValue, 88, 6.7717000000000007E-06
DataValue, 89, 6.8024E-06
DataValue, 90, 6.8118000000000006E-06
DataValue, 91, 6.8349E-06
DataValue, 92, 6.8632000000000006E-06
DataValue, 93, 6.8941000000000006E-06
DataValue, 94, 6.9112000000000008E-06
DataValue, 95, 6.9465E-06
DataValue, 96, 6.9680000000000009E-06
DataValue, 97, 6.994E-06
DataValue, 98, 7.020200000000001E-06
DataValue, 99, 7.0471000000000007E-06
DataValue, 100, 7.0777000000000009E-06
DataValue, 100, 7.0865000000000007E-06
DataValue, 99, 7.068900000000001E-06
DataValue, 98, 7.0585000000000011E-06
DataValue, 97, 7.0348000000000008E-06
DataValue, 96, 7.0048000000000011E-06
DataValue, 95, 6.9684000000000009E-06
DataValue, 94, 6.9515000000000011E-06
DataValue, 93, 6.9063000000000011E-06
DataValue, 92, 6.8871000000000005E-06
DataValue, 91, 6.8529000000000009E-06
DataValue, 90, 6.8110000000000005E-06
DataValue, 89, 6.7788000000000011E-06
DataValue, 88, 6.7017000000000006E-06
DataValue, 87, 6.6479E-06
DataValue, 86, 6.583700000000001E-06
DataValue, 85, 6.5189E-06
DataValue, 84, 6.4689000000000009E-06
DataValue, 83, 6.4202000000000008E-06
DataValue, 82, 6.3707000000000007E-06
DataValue, 81, 6.3533000000000006E-06
DataValue, 80, 6.3159000000000008E-06
DataValue, 79, 6.2807000000000007E-06
DataValue, 78, 6.2491000000000009E-06
DataValue, 77, 6.2478000000000006E-06
DataValue, 76, 6.2203E-06
DataValue, 75, 6.2119000000000006E-06
DataValue, 74, 6.1807000000000008E-06
DataValue, 73, 6.1365000000000005E-06
DataValue, 72, 6.1333E-06
DataValue, 71, 6.0980000000000007E-06
DataValue, 70, 6.0791000000000008E-06
DataValue, 69, 6.048300000000001E-06
DataValue, 68, 6.0257000000000006E-06
DataValue, 67, 6.0037000000000006E-06
DataValue, 66, 5.9874000000000005E-06
DataValue, 65, 5.9667000000000008E-06
DataValue, 64, 5.9476000000000005E-06
DataValue, 63, 5.9386E-06
DataValue, 62, 5.9221000000000004E-06
DataValue, 61, 5.9051000000000004E-06
DataValue, 60, 5.8905000000000006E-06
DataValue, 59, 5.8679E-06
DataValue, 58, 5.839300000000001E-06
DataValue, 57, 5.8249000000000008E-06
DataValue, 56, 5.8043000000000005E-06
DataValue, 55, 5.7945E-06
DataValue, 54, 5.7653000000000005E-06
DataValue, 53, 5.7362E-06
DataValue, 52, 5.7074000000000006E-06
DataValue, 51, 5.7105000000000006E-06
DataValue, 50, 5.6805000000000009E-06
DataValue, 49, 5.6759E-06
DataValue, 48, 5.6366E-06
DataValue, 47, 5.6305000000000006E-06
DataValue, 46, 5.619100000000001E-06
DataValue, 45, 5.5926000000000005E-06
DataValue, 44, 5.5702000000000005E-06
DataValue, 43, 5.5598000000000005E-06
DataValue, 42, 5.5531E-06
DataValue, 41, 5.5187E-06
DataValue, 40, 5.4928E-06
DataValue, 39, 5.4093000000000009E-06
DataValue, 38, 5.3876000000000007E-06
DataValue, 37, 5.3547000000000006E-06
DataValue, 36, 5.3691000000000008E-06
DataValue, 35, 5.3659000000000006E-06
DataValue, 34, 5.3687000000000008E-06
DataValue, 33, 5.3952000000000005E-06
DataValue, 32, 5.4008000000000009E-06
DataValue, 31, 5.4180000000000005E-06
DataValue, 30, 5.4258000000000006E-06
DataValue, 29, 5.4399E-06
DataValue, 28, 5.4581E-06
DataValue, 27, 5.4774E-06
DataValue, 26, 5.5143000000000007E-06
DataValue, 25, 5.556900000000001E-06
DataValue, 24, 5.5971E-06
DataValue, 23, 5.6391000000000008E-06
DataValue, 22, 5.7088E-06
DataValue, 21, 5.7809000000000008E-06
DataValue, 20, 5.8445000000000005E-06
DataValue, 19, 5.920800000000001E-06
DataValue, 18, 6.0095000000000007E-06
DataValue, 17, 6.1010000000000005E-06
DataValue, 16, 6.2126000000000005E-06
DataValue, 15, 6.3126E-06
DataValue, 14, 6.4243000000000005E-06
DataValue, 13, 6.5542000000000007E-06
DataValue, 12, 6.6831000000000004E-06
DataValue, 11, 6.8256E-06
DataValue, 10, 6.9622000000000009E-06
DataValue, 9, 7.1349000000000009E-06
DataValue, 8, 7.2899000000000011E-06
DataValue, 7, 7.4619000000000005E-06
DataValue, 6, 7.6373E-06
DataValue, 5, 7.8169000000000013E-06
DataValue, 4, 7.984400000000001E-06
DataValue, 3, 8.1664E-06
DataValue, 2, 8.3511E-06
DataValue, 1, 8.528300000000001E-06
DataValue, 0, 8.7224000000000014E-06
DataValue, -1, 8.9286000000000012E-06
DataValue, -2, 9.120100000000001E-06
DataValue, -3, 9.3274000000000015E-06
DataValue, -4, 9.5160000000000017E-06
DataValue, -5, 9.6987E-06
DataValue, -6, 9.8879E-06
DataValue, -7, 1.0083600000000001E-05
DataValue, -8, 1.0282300000000002E-05
DataValue, -9, 1.0472900000000001E-05
DataValue, -10, 1.0663000000000001E-05
DataValue, -11, 1.0840200000000002E-05
DataValue, -12, 1.10358E-05
DataValue, -13, 1.1218100000000002E-05
DataValue, -14, 1.1404000000000001E-05
DataValue, -15, 1.162E-05
DataValue, -16, 1.1764000000000001E-05
DataValue, -17, 1.1930000000000001E-05
DataValue, -18, 1.2100000000000001E-05
DataValue, -19, 1.2270000000000001E-05
DataValue, -20, 1.2458E-05
DataValue, -21, 1.2618E-05
DataValue, -22, 1.2780000000000001E-05
DataValue, -23, 1.2966000000000001E-05
DataValue, -24, 1.313E-05
DataValue, -25, 1.3312E-05
DataValue, -26, 1.3466000000000001E-05
DataValue, -27, 1.3624E-05
DataValue, -28, 1.3792000000000001E-05
DataValue, -29, 1.3958000000000001E-05
DataValue, -30, 1.4132000000000001E-05
DataValue, -31, 1.4304E-05
DataValue, -32, 1.4452E-05
DataValue, -33, 1.4614000000000001E-05
DataValue, -34, 1.4772E-05
DataValue, -35, 1.4924E-05
DataValue, -36, 1.5068E-05
DataValue, -37, 1.5238E-05
DataValue, -38, 1.542E-05
DataValue, -39, 1.5558E-05
DataValue, -40, 1.5700000000000002E-05
DataValue, -41, 1.5862E-05
DataValue, -42, 1.6E-05
DataValue, -43, 1.6144E-05
DataValue, -44, 1.6298000000000002E-05
DataValue, -45, 1.6422E-05
DataValue, -46, 1.6556000000000002E-05
DataValue, -47, 1.6684E-05
DataValue, -48, 1.6828000000000002E-05
DataValue, -49, 1.6946E-05
DataValue, -50, 1.7096E-05
DataValue, -51, 1.7202E-05
DataValue, -52, 1.7306E-05
DataValue, -53, 1.7436E-05
DataValue, -54, 1.7562000000000002E-05
DataValue, -55, 1.7686E-05
DataValue, -56, 1.7774E-05
DataValue, -57, 1.7898E-05
DataValue, -58, 1.8E-05
DataValue, -59, 1.8108E-05
DataValue, -60, 1.8232E-05
DataValue, -61, 1.8370000000000002E-05
DataValue, -62, 1.846E-05
DataValue, -63, 1.8528E-05
DataValue, -64, 1.8646E-05
DataValue, -65, 1.8712E-05
DataValue, -66, 1.883E-05
DataValue, -67, 1.8954000000000002E-05
DataValue, -68, 1.9016000000000002E-05
DataValue, -69, 1.9084000000000002E-05
DataValue, -70, 1.9174E-05
DataValue, -71, 1.9268E-05
DataValue, -72, 1.9354E-05
DataValue, -73, 1.9462E-05
DataValue, -74, 1.9546000000000002E-05
DataValue, -75, 1.9618E-05
DataValue, -76, 1.9702000000000002E-05
DataValue, -77, 1.9766E-05
DataValue, -78, 1.9862E-05
DataValue, -79, 1.9916E-05
DataValue, -80, 2.0016E-05
DataValue, -81, 2.0092E-05
DataValue, -82, 2.0146E-05
DataValue, -83, 2.0226E-05
DataValue, -84, 2.0312E-05
DataValue, -85, 2.0384E-05
DataValue, -86, 2.0436000000000002E-05
DataValue, -87, 2.052E-05
DataValue, -88, 2.0572000000000002E-05
DataValue, -89, 2.0662E-05
DataValue, -90, 2.0736E-05
DataValue, -91, 2.0808E-05
DataValue, -92, 2.0874E-05
DataValue, -93, 2.093E-05
DataValue, -94, 2.0994E-05
DataValue, -95, 2.1058E-05
DataValue, -96, 2.1118E-05
DataValue, -97, 2.1176000000000002E-05
DataValue, -98, 2.1234E-05
DataValue, -99, 2.1302E-05
DataValue, -100, 2.1338E-05